Title: KiCad schematic
Date: Thu Apr 23 09:44:34  2026
Command: ngspice-46, Build Mar 29 2026   14:56:48
Plotname: DC transfer characteristic
Flags: real
No. Variables: 14
No. Points: 101     
Variables:
	0	v(v-sweep)	voltage
	1	v1:power	power
	2	v(/vdd)	voltage
	3	r1:power	power
	4	v(/vd)	voltage
	5	q1:power	power
	6	v(/vg)	voltage
	7	v2:power	power
	8	i(v2)	current
	9	i(q1:e)	current
	10	i(q1:b)	current
	11	i(q1:c)	current
	12	i(r1)	current
	13	i(v1)	current
Values:
0		0.000000000000000e+00
	-2.461639713249864e-08
	1.000000000000000e+01
	6.059670161015520e-15
	9.999997538360287e+00
	2.458305983160701e-08
	0.000000000000000e+00
	0.000000000000000e+00
	2.323842545236583e-09
	-1.277976578768976e-10
	-2.323842545236583e-09
	2.461639780904079e-09
	2.461639780904079e-09
	-2.461639713249864e-09
1		1.000000000000000e-02
	-2.499029210997761e-08
	1.000000000000000e+01
	6.245147251803008e-15
	9.999997500970789e+00
	2.493654402688456e-08
	1.000000000000000e-02
	2.037765100106406e-11
	2.037765100106406e-09
	-4.512644185373366e-10
	-2.037765100106406e-09
	2.499029427838195e-09
	2.499029427838195e-09
	-2.499029210997761e-09
2		2.000000000000000e-02
	-2.547361464128040e-08
	1.000000000000000e+01
	6.489050944830255e-15
	9.999997452638535e+00
	2.540588794312086e-08
	2.000000000000000e-02
	3.432438935510595e-11
	1.716219467755298e-09
	-8.211424221453039e-10
	-1.716219467755298e-09
	2.547361876992227e-09
	2.547361876992227e-09
	-2.547361464128040e-09
3		3.000000000000000e-02
	-2.609839535455682e-08
	1.000000000000000e+01
	6.811203941880271e-15
	9.999997390160464e+00
	2.602431448848874e-08
	3.000000000000000e-02
	4.064408884972559e-11
	1.354802961657520e-09
	-1.245036853055363e-09
	-1.354802961657520e-09
	2.609839899747612e-09
	2.609839899747612e-09
	-2.609839535455682e-09
4		4.000000000000000e-02
	-2.690604315735978e-08
	1.000000000000000e+01
	7.239253527391612e-15
	9.999997309395685e+00
	2.683462987977621e-08
	4.000000000000000e-02
	3.794265440032474e-11
	9.485663600081184e-10
	-1.732038313177231e-09
	-9.485663600081184e-10
	2.690604627986204e-09
	2.690604627986204e-09
	-2.690604315735978e-09
5		5.000000000000000e-02
	-2.795006061664940e-08
	1.000000000000000e+01
	7.811894264124887e-15
	9.999997204993939e+00
	2.789195671902453e-08
	5.000000000000000e-02
	2.459707047416937e-11
	4.919414094833874e-10
	-2.293065056991192e-09
	-4.919414094833874e-10
	2.795006004419065e-09
	2.795006004419065e-09
	-2.795006061664940e-09
6		6.000000000000000e-02
	-2.929961684730586e-08
	1.000000000000000e+01
	8.584401073763300e-15
	9.999997070038315e+00
	2.926735793851620e-08
	6.000000000000000e-02
	-1.280010680781985e-12
	-2.133351134636641e-11
	-2.941295361774946e-09
	2.133351134636641e-11
	2.929962050757240e-09
	2.929962050757240e-09
	-2.929961684730586e-09
7		7.000000000000001e-02
	-3.104410962670445e-08
	1.000000000000000e+01
	9.636908054221047e-15
	9.999996895589037e+00
	3.105241580905748e-08
	7.000000000000001e-02
	-4.188110150349367e-11
	-5.983014500499095e-10
	-3.692712846110748e-09
	5.983014500499095e-10
	3.104410950527381e-09
	3.104410950527381e-09
	-3.104410962670445e-09
8		8.000000000000000e-02
	-3.329911586053003e-08
	1.000000000000000e+01
	1.108754488532044e-14
	9.999996670088414e+00
	3.336526133771826e-08
	8.000000000000000e-02
	-9.975083078983538e-11
	-1.246885384872942e-09
	-4.566797172626310e-09
	1.246885384872942e-09
	3.329912345861885e-09
	3.329912345861885e-09
	-3.329911586053003e-09
9		9.000000000000000e-02
	-3.621401296893811e-08
	1.000000000000000e+01
	1.311326587519941e-14
	9.999996378598704e+00
	3.635821022536959e-08
	9.000000000000000e-02
	-1.778399460507230e-10
	-1.975999400563588e-09
	-5.587400729232439e-09
	1.975999400563588e-09
	3.621401845066430e-09
	3.621401845066430e-09
	-3.621401296893811e-09
10		9.999999999999999e-02
	-3.998188948320380e-08
	1.000000000000000e+01
	1.598337289392953e-14
	9.999996001811052e+00
	4.022777834738388e-08
	9.999999999999999e-02
	-2.795674313577079e-10
	-2.795674313577079e-09
	-6.783863708474097e-09
	2.795674313577079e-09
	3.998189335163715e-09
	3.998189335163715e-09
	-3.998188948320380e-09
11		1.100000000000000e-01
	-4.485235412243771e-08
	1.000000000000000e+01
	2.011375711352683e-14
	9.999995514764588e+00
	4.522752828326643e-08
	1.100000000000000e-01
	-4.088919606029528e-10
	-3.717199641845026e-09
	-8.192435094683362e-09
	3.717199641845026e-09
	4.485235738371784e-09
	4.485235738371784e-09
	-4.485235412243771e-09
12		1.200000000000000e-01
	-5.114802120037565e-08
	1.000000000000000e+01
	2.615522041052896e-14
	9.999994885197880e+00
	5.168466078638851e-08
	1.200000000000000e-01
	-5.703941161061543e-10
	-4.753284300884619e-09
	-9.858086543119068e-09
	4.753284300884619e-09
	5.114802803518614e-09
	5.114802803518614e-09
	-5.114802120037565e-09
13		1.300000000000000e-01
	-5.928592240397879e-08
	1.000000000000000e+01
	3.513821113485792e-14
	9.999994071407759e+00
	6.002149355245667e-08
	1.300000000000000e-01
	-7.693710113096384e-10
	-5.918238548535681e-09
	-1.183683127315185e-08
	5.918238548535681e-09
	5.928592283765965e-09
	5.928592283765965e-09
	-5.928592240397879e-09
14		1.400000000000000e-01
	-6.980511769311137e-08
	1.000000000000000e+01
	4.871084439802248e-14
	9.999993019488231e+00
	7.078321557587257e-08
	1.400000000000000e-01
	-1.011945242115897e-09
	-7.228180300827836e-09
	-1.419869255144164e-08
	7.228180300827836e-09
	6.980511724208327e-09
	6.980511724208327e-09
	-6.980511769311137e-09
15		1.500000000000000e-01
	-8.340238805137901e-08
	1.000000000000000e+01
	6.953168175926252e-14
	9.999991659761195e+00
	8.467367842269119e-08
	1.500000000000000e-01
	-1.305190397427047e-09
	-8.701269316180316e-09
	-1.703150824653739e-08
	8.701269316180316e-09
	8.340239165960384e-09
	8.340239165960384e-09
	-8.340238805137901e-09
16		1.600000000000000e-01
	-1.009783842133294e-07
	1.000000000000000e+01
	1.019197206519064e-13
	9.999989902161579e+00
	1.026016931893861e-07
	1.600000000000000e-01
	-1.657275741639985e-09
	-1.035797338524991e-08
	-2.044581205312153e-08
	1.035797338524991e-08
	1.009783856531499e-08
	1.009783856531499e-08
	-1.009783842133294e-08
17		1.700000000000000e-01
	-1.236972991570939e-07
	1.000000000000000e+01
	1.529323216166693e-13
	9.999987630270084e+00
	1.257408793927727e-07
	1.700000000000000e-01
	-2.077633158813208e-09
	-1.222137152243064e-08
	-2.458110187855408e-08
	1.222137152243064e-08
	1.236972968499117e-08
	1.236972968499117e-08
	-1.236972991570939e-08
18		1.800000000000000e-01
	-1.530639641249276e-07
	1.000000000000000e+01
	2.341556268210375e-13
	9.999984693603588e+00
	1.556069513069101e-07
	1.800000000000000e-01
	-2.577149925964140e-09
	-1.431749958868966e-08
	-2.961389616521952e-08
	1.431749958868966e-08
	1.530639703872794e-08
	1.530639703872794e-08
	-1.530639641249276e-08
19		1.900000000000000e-01
	-1.910234987724524e-07
	1.000000000000000e+01
	3.646823214054092e-13
	9.999980897650122e+00
	1.941575632351726e-07
	1.900000000000000e-01
	-3.168391627811352e-09
	-1.667574540953343e-08
	-3.576809554540655e-08
	1.667574540953343e-08
	1.910235036817198e-08
	1.910235036817198e-08
	-1.910234987724524e-08
20		2.000000000000000e-01
	-2.400901636008534e-07
	1.000000000000000e+01
	5.760695448443647e-13
	9.999975990983639e+00
	2.439214502109156e-07
	2.000000000000000e-01
	-3.865860241647479e-09
	-1.932930120823739e-08
	-4.332831788805050e-08
	1.932930120823739e-08
	2.400901655263965e-08
	2.400901655263965e-08
	-2.400901636008534e-08
21		2.100000000000000e-01
	-3.035138625498424e-07
	1.000000000000000e+01
	9.205996115020293e-13
	9.999969648613744e+00
	3.081652055476318e-07
	2.100000000000000e-01
	-4.686293458289193e-09
	-2.231568313471044e-08
	-5.265706944552638e-08
	2.231568313471044e-08
	3.035138673723736e-08
	3.035138673723736e-08
	-3.035138625498424e-08
22		2.200000000000001e-01
	-3.854953696189045e-07
	1.000000000000000e+01
	1.485052561345986e-12
	9.999961450463038e+00
	3.911088334305264e-07
	2.200000000000001e-01
	-5.649012422559443e-09
	-2.567732919345200e-08
	-6.421686629812046e-08
	2.567732919345200e-08
	3.854953734006017e-08
	3.854953734006017e-08
	-3.854953696189045e-08
23		2.300000000000001e-01
	-4.914645540532447e-07
	1.000000000000000e+01
	2.413679483654474e-12
	9.999950853544595e+00
	4.982043673171167e-07
	2.300000000000001e-01
	-6.776326625795860e-09
	-2.946228967737330e-08
	-7.859874523506110e-08
	2.946228967737330e-08
	4.914645534981332e-08
	4.914645534981332e-08
	-4.914645540532447e-08
24		2.400000000000001e-01
	-6.284399571739041e-07
	1.000000000000000e+01
	3.946536496713157e-12
	9.999937156004282e+00
	6.364958861471085e-07
	2.400000000000001e-01
	-8.094006441750070e-09
	-3.372502684062528e-08
	-9.655902306959775e-08
	3.372502684062528e-08
	6.284399578504463e-08
	6.284399578504463e-08
	-6.284399571739041e-08
25		2.500000000000001e-01
	-8.054936142046221e-07
	1.000000000000000e+01
	6.483469154408945e-12
	9.999919450638579e+00
	8.150848040694434e-07
	2.500000000000001e-01
	-9.631836056164801e-09
	-3.852734422465920e-08
	-1.190667058987628e-07
	3.852734422465920e-08
	8.054936184720418e-08
	8.054936184720418e-08
	-8.054936142046221e-08
26		2.600000000000001e-01
	-1.034351796297406e-06
	1.000000000000000e+01
	1.069093283381107e-11
	9.999896564820370e+00
	1.045731171233312e-06
	2.600000000000001e-01
	-1.142426245076545e-08
	-4.393947096448247e-08
	-1.473646508253075e-07
	4.393947096448247e-08
	1.034351799766853e-07
	1.034351799766853e-07
	-1.034351796297406e-07
27		2.700000000000001e-01
	-1.330171563607846e-06
	1.000000000000000e+01
	1.768035891048923e-11
	9.999866982843638e+00
	1.343630814185600e-06
	2.700000000000001e-01
	-1.351115958427019e-08
	-5.004133179359327e-08
	-1.830484884638233e-07
	5.004133179359327e-08
	1.330171568447724e-07
	1.330171568447724e-07
	-1.330171563607846e-07
28		2.800000000000001e-01
	-1.712544441066083e-06
	1.000000000000000e+01
	2.930602233520472e-11
	9.999828745555893e+00
	1.728419605643271e-06
	2.800000000000001e-01
	-1.593873140859348e-08
	-5.692404074497670e-08
	-2.281684849734913e-07
	5.692404074497670e-08
	1.712544448473352e-07
	1.712544448473352e-07
	-1.712544441066083e-07
29		2.900000000000001e-01
	-2.206793679356001e-06
	1.000000000000000e+01
	4.866252290236395e-11
	9.999779320632065e+00
	2.225471306857430e-06
	2.900000000000001e-01
	-1.876058317917817e-08
	-6.469166613509714e-08
	-2.853610346623731e-07
	6.469166613509714e-08
	2.206793685566311e-07
	2.206793685566311e-07
	-2.206793679356001e-07
30		3.000000000000001e-01
	-2.845651021019663e-06
	1.000000000000000e+01
	8.091571311081316e-11
	9.999715434897897e+00
	2.867574775794677e-06
	3.000000000000001e-01
	-2.203899764768869e-08
	-7.346332549229562e-08
	-3.580184281772363e-07
	7.346332549229562e-08
	2.845651025928930e-07
	2.845651025928930e-07
	-2.845651021019663e-07
31		3.100000000000001e-01
	-3.671423812884322e-06
	1.000000000000000e+01
	1.346906379535130e-10
	9.999632857618712e+00
	3.697101221120016e-06
	3.100000000000001e-01
	-2.584646204083219e-08
	-8.337568400268447e-08
	-4.505080657677835e-07
	8.337568400268447e-08
	3.671423813855768e-07
	3.671423813855768e-07
	-3.671423812884322e-07
32		3.200000000000001e-01
	-4.738795965422704e-06
	1.000000000000000e+01
	2.243899728900499e-10
	9.999526120403457e+00
	4.768804685541945e-06
	3.200000000000001e-01
	-3.026750372114863e-08
	-9.458594912858942e-08
	-5.684555463888975e-07
	9.458594912858942e-08
	4.738795968961540e-07
	4.738795968961540e-07
	-4.738795965422704e-07
33		3.300000000000001e-01
	-6.118447977779273e-06
	1.000000000000000e+01
	3.740668671844716e-10
	9.999388155202222e+00
	6.153440394509795e-06
	3.300000000000001e-01
	-3.540090749980242e-08
	-1.072754772721285e-07
	-7.191102760473061e-07
	1.072754772721285e-07
	6.118447983816111e-07
	6.118447983816111e-07
	-6.118447977779273e-07
34		3.400000000000001e-01
	-7.901735389753695e-06
	1.000000000000000e+01
	6.238944252123449e-10
	9.999209826461025e+00
	7.942439445290606e-06
	3.400000000000001e-01
	-4.136240746951960e-08
	-1.216541396162341e-07
	-9.118176795086274e-07
	1.216541396162341e-07
	7.901735394888476e-07
	7.901735394888476e-07
	-7.901735389753695e-07
35		3.500000000000001e-01
	-1.020673490710264e-05
	1.000000000000000e+01
	1.040972810883745e-09
	9.998979326509289e+00
	1.025394741628343e-05
	3.500000000000001e-01
	-4.828797145577103e-08
	-1.379656327307743e-07
	-1.158629124846935e-06
	1.379656327307743e-07
	1.020673491058943e-06
	1.020673491058943e-06
	-1.020673490710264e-06
36		3.600000000000002e-01
	-1.318605767892597e-05
	1.000000000000000e+01
	1.737382081795213e-09
	9.998681394232108e+00
	1.324062360473589e-05
	3.600000000000002e-01
	-5.633782913683218e-08
	-1.564939698245338e-07
	-1.475089739494496e-06
	1.564939698245338e-07
	1.318605768130254e-06
	1.318605768130254e-06
	-1.318605767892597e-06
37		3.700000000000002e-01
	-1.703694545664505e-05
	1.000000000000000e+01
	2.900338088938209e-09
	9.998296305454335e+00
	1.709971200250511e-05
	3.700000000000002e-01
	-6.570143745596171e-08
	-1.775714525836802e-07
	-1.881255999995599e-06
	1.775714525836802e-07
	1.703694545884815e-06
	1.703694545884815e-06
	-1.703694545664505e-06
38		3.800000000000002e-01
	-2.201431566083503e-05
	1.000000000000000e+01
	4.842564021738431e-09
	9.997798568433916e+00
	2.208604214570665e-05
	3.800000000000002e-01
	-7.660363219530456e-08
	-2.015885057771172e-07
	-2.403010074018719e-06
	2.015885057771172e-07
	2.201431566373202e-06
	2.201431566373202e-06
	-2.201431566083503e-06
39		3.900000000000002e-01
	-2.844761488459205e-05
	1.000000000000000e+01
	8.086425704751916e-09
	9.997155238511541e+00
	2.852880613382358e-05
	3.900000000000002e-01
	-8.931228648145777e-08
	-2.290058627729685e-07
	-3.073757354527554e-06
	2.290058627729685e-07
	2.844761488596248e-06
	2.844761488596248e-06
	-2.844761488459205e-06
40		4.000000000000002e-01
	-3.676258965570542e-05
	1.000000000000000e+01
	1.350445343286424e-08
	9.996323741034429e+00
	3.685319845246453e-05
	4.000000000000002e-01
	-1.041478904229010e-07
	-2.603697260572524e-07
	-3.936618695494429e-06
	2.603697260572524e-07
	3.676258965690238e-06
	3.676258965690238e-06
	-3.676258965570542e-06
41		4.100000000000002e-01
	-4.750940413914689e-05
	1.000000000000000e+01
	2.255402030750268e-08
	9.995249059586085e+00
	4.760831103937761e-05
	4.100000000000002e-01
	-1.214955876624458e-07
	-2.963307016157213e-07
	-5.047261120345148e-06
	2.963307016157213e-07
	4.750940413966731e-06
	4.750940413966731e-06
	-4.750940413914689e-06
42		4.200000000000002e-01
	-6.139894699311657e-05
	1.000000000000000e+01
	3.766922369520434e-08
	9.993860105300689e+00
	6.150306344350361e-05
	4.200000000000002e-01
	-1.418203637509886e-07
	-3.376675327404488e-07
	-6.477552238699137e-06
	3.376675327404488e-07
	6.139894699330739e-06
	6.139894699330739e-06
	-6.139894699311657e-06
43		4.300000000000002e-01
	-7.934969853797338e-05
	1.000000000000000e+01
	6.291518157661320e-08
	9.992065030146202e+00
	7.945243493478487e-05
	4.300000000000002e-01
	-1.656862875151766e-07
	-3.853169477097129e-07
	-8.320276809938406e-06
	3.853169477097129e-07
	7.934969854073159e-06
	7.934969854073159e-06
	-7.934969853797338e-06
44		4.400000000000002e-01
	-1.025482068537850e-04
	1.000000000000000e+01
	1.050802624528660e-07
	9.989745179314621e+00
	1.026368728432487e-04
	4.400000000000002e-01
	-1.937809772872835e-07
	-4.404113120165531e-07
	-1.069522200795572e-05
	4.404113120165531e-07
	1.025482068595096e-05
	1.025482068595096e-05
	-1.025482068537850e-05
45		4.500000000000002e-01
	-1.325270862983542e-04
	1.000000000000000e+01
	1.754989315040124e-07
	9.986747291370165e+00
	1.325784994392054e-04
	4.500000000000002e-01
	-2.269468162084677e-07
	-5.043262582410390e-07
	-1.375702490150505e-05
	5.043262582410390e-07
	1.325270862961858e-05
	1.325270862961858e-05
	-1.325270862983542e-05
46		4.600000000000002e-01
	-1.712655515882441e-04
	1.000000000000000e+01
	2.930930005779473e-07
	9.982873444841175e+00
	1.712386447403062e-04
	4.600000000000002e-01
	-2.662209015003027e-07
	-5.787410902180490e-07
	-1.770528626624520e-05
	5.787410902180490e-07
	1.712655515895278e-05
	1.712655515895278e-05
	-1.712655515882441e-05
47		4.700000000000003e-01
	-2.213188923478986e-04
	1.000000000000000e+01
	4.894436545102121e-07
	9.977868110765209e+00
	2.211423002609155e-04
	4.700000000000003e-01
	-3.128863143857243e-07
	-6.657155625228173e-07
	-2.279759481960665e-05
	6.657155625228173e-07
	2.213188923505527e-05
	2.213188923505527e-05
	-2.213188923478986e-05
48		4.800000000000003e-01
	-2.859850425336596e-04
	1.000000000000000e+01
	8.172459543652347e-07
	9.971401495746633e+00
	2.855362999300467e-04
	4.800000000000003e-01
	-3.685380836504495e-07
	-7.677876742717693e-07
	-2.936628195648688e-05
	7.677876742717693e-07
	2.859850425407373e-05
	2.859850425407373e-05
	-2.859850425336596e-05
49		4.900000000000003e-01
	-3.695185788873956e-04
	1.000000000000000e+01
	1.364392232377826e-06
	9.963048142111260e+00
	3.685893201873540e-04
	4.900000000000003e-01
	-4.351682436837259e-07
	-8.880984564973993e-07
	-3.783994638248972e-05
	8.880984564973993e-07
	3.695185788910038e-05
	3.695185788910038e-05
	-3.695185788873956e-05
50		5.000000000000002e-01
	-4.774051659550520e-04
	1.000000000000000e+01
	2.277412016919299e-06
	9.952259483404495e+00
	4.756429949945626e-04
	5.000000000000002e-01
	-5.152757306253755e-07
	-1.030551461250750e-06
	-4.877105810458992e-05
	1.030551461250750e-06
	4.774051659550693e-05
	4.774051659550693e-05
	-4.774051659550520e-05
51		5.100000000000002e-01
	-6.167127137692886e-04
	1.000000000000000e+01
	3.800441794699441e-06
	9.938328728623071e+00
	6.135242459779828e-04
	5.100000000000002e-01
	-6.120086153914297e-07
	-1.200016892924372e-06
	-6.287127833205370e-05
	1.200016892924372e-06
	6.167127137679529e-05
	6.167127137679529e-05
	-6.167127137692886e-05
52		5.200000000000002e-01
	-7.965393555178606e-04
	1.000000000000000e+01
	6.339922082169037e-06
	9.920346064448214e+00
	7.909287473798759e-04
	5.200000000000002e-01
	-7.293484653425612e-07
	-1.402593202581848e-06
	-8.105651883466491e-05
	1.402593202581848e-06
	7.965393555187106e-05
	7.965393555187106e-05
	-7.965393555178606e-05
53		5.300000000000002e-01
	-1.028582739085668e-03
	1.000000000000000e+01
	1.057181120685518e-05
	9.897141726091434e+00
	1.018883243104236e-03
	5.300000000000002e-01
	-8.723496206858309e-07
	-1.645942680539303e-06
	-1.045042066926395e-04
	1.645942680539303e-06
	1.028582739088790e-04
	1.028582739088790e-04
	-1.028582739085668e-04
54		5.400000000000003e-01
	-1.327859872178178e-03
	1.000000000000000e+01
	1.761884103899740e-05
	9.867214012782183e+00
	1.311288446993956e-03
	5.400000000000003e-01
	-1.047450082507229e-06
	-1.939722375013386e-06
	-1.347256997263669e-04
	1.939722375013386e-06
	1.327859872177761e-04
	1.327859872177761e-04
	-1.327859872178178e-04
55		5.500000000000003e-01
	-1.713611436716823e-03
	1.000000000000000e+01
	2.934269400745450e-05
	9.828638856328318e+00
	1.685531584520678e-03
	5.500000000000003e-01
	-1.262875810100623e-06
	-2.296137836546586e-06
	-1.736572716805199e-04
	2.296137836546586e-06
	1.713611436717777e-04
	1.713611436717777e-04
	-1.713611436716823e-04
56		5.600000000000003e-01
	-2.210428275608318e-03
	1.000000000000000e+01
	4.882376146365941e-05
	9.778957172439169e+00
	2.163133647327388e-03
	5.600000000000003e-01
	-1.529166877531907e-06
	-2.730655138449833e-06
	-2.237734729213583e-04
	2.730655138449833e-06
	2.210428275613019e-04
	2.210428275613019e-04
	-2.210428275608318e-04
57		5.700000000000003e-01
	-2.849639243386656e-03
	1.000000000000000e+01
	8.114505720171507e-05
	9.715036075661335e+00
	2.770354015485078e-03
	5.700000000000003e-01
	-1.859862602397317e-06
	-3.262916846311081e-06
	-2.882268314710245e-04
	3.262916846311081e-06
	2.849639243387436e-04
	2.849639243387436e-04
	-2.849639243386656e-04
58		5.800000000000003e-01
	-3.670996568950861e-03
	1.000000000000000e+01
	1.346651446691464e-04
	9.632900343104914e+00
	3.538603785524332e-03
	5.800000000000003e-01
	-2.272394029025350e-06
	-3.917920739698877e-06
	-3.710175680032860e-04
	3.917920739698877e-06
	3.670996568954088e-04
	3.670996568954088e-04
	-3.670996568950861e-04
59		5.900000000000003e-01
	-4.724684054873453e-03
	1.000000000000000e+01
